T3020 051:595 SEGGER J-Link V6.46 Log File (0000ms, 19768ms total)
T3020 051:595 DLL Compiled: May 23 2019 17:49:56 (0000ms, 19768ms total)
T3020 051:595 Logging started @ 2021-04-17 11:41 (0000ms, 19768ms total)
T3020 051:595 JLINK_SetWarnOutHandler(...) (0000ms, 19768ms total)
T3020 051:595 JLINK_OpenEx(...)
Firmware: J-Link V9 compiled Feb  2 2021 16:34:10
Hardware: V9.20
Feature(s): RDI, FlashBP, FlashDL, JFlash, GDB
TELNET listener socket opened on port 19021WEBSRV 
Starting webserver (0149ms, 19917ms total)
T3020 051:595 WEBSRV Webserver running on local port 19080 (0149ms, 19917ms total)
T3020 051:595   returns O.K. (0149ms, 19917ms total)
T3020 051:744 JLINK_GetEmuCaps()  returns 0xB9FF7BBF (0000ms, 19917ms total)
T3020 051:744 JLINK_TIF_GetAvailable(...) (0001ms, 19918ms total)
T3020 051:745 JLINK_SetErrorOutHandler(...) (0000ms, 19918ms total)
T3020 051:745 JLINK_ExecCommand("ProjectFile = "D:\_STM32\Games\MDK-ARM\JLinkSettings.ini"", ...).   returns 0x00 (0071ms, 19989ms total)
T3020 051:819 JLINK_ExecCommand("Device = STM32F103ZE", ...). Device "STM32F103ZE" selected.  returns 0x00 (0063ms, 20052ms total)
T3020 051:883 JLINK_ExecCommand("DisableConnectionTimeout", ...).   returns 0x01 (0000ms, 20052ms total)
T3020 051:883 JLINK_GetHardwareVersion()  returns 0x16760 (0000ms, 20052ms total)
T3020 051:883 JLINK_GetDLLVersion()  returns 64600 (0000ms, 20052ms total)
T3020 051:883 JLINK_GetFirmwareString(...) (0000ms, 20052ms total)
T3020 051:893 JLINK_GetDLLVersion()  returns 64600 (0000ms, 20052ms total)
T3020 051:893 JLINK_GetCompileDateTime() (0000ms, 20052ms total)
T3020 051:896 JLINK_GetFirmwareString(...) (0000ms, 20052ms total)
T3020 051:899 JLINK_GetHardwareVersion()  returns 0x16760 (0000ms, 20052ms total)
T3020 051:907 JLINK_TIF_Select(JLINKARM_TIF_JTAG)  returns 0x00 (0017ms, 20069ms total)
T3020 051:925 JLINK_SetSpeed(5000) (0000ms, 20070ms total)
T3020 051:925 JLINK_GetIdData(...) >0x2F8 JTAG>TotalIRLen = 9, IRPrint = 0x0011 >0x30 JTAG> >0x50 JTAG>JTAG chain detection found 2 devices: #0 Id: 0x3BA00477, IRLen: 04, CoreSight JTAG-DP #1 Id: 0x06414041, IRLen: 05, STM32 Boundary Scan >0x40 JTAG> >0x40 JTAG> >0x40 JTAG> >0x30 JTAG> >0x40 JTAG> >0x40 JTAG> >0x40 JTAG> >0x40 JTAG> >0x40 JTAG> >0x40 JTAG> >0x40 JTAG> >0x40 JTAG> >0x40 JTAG> >0x40 JTAG> >0x40 JTAG> >0x40 JTAG> >0x40 JTAG> >0x40 JTAG> >0x40 JTAG> >0x40 JTAG> >0x40 JTAG> >0x40 JTAG>
 >0x40 JTAG> >0x40 JTAG> >0x40 JTAG> >0x40 JTAG> >0x40 JTAG> >0x40 JTAG> >0x40 JTAG> >0x2F8 JTAG>TotalIRLen = 9, IRPrint = 0x0011 >0x30 JTAG> >0x50 JTAG>JTAG chain detection found 2 devices: #0 Id: 0x3BA00477, IRLen: 04, CoreSight JTAG-DP #1 Id: 0x06414041, IRLen: 05, STM32 Boundary ScanScanning AP map to find all available APs >0x80 JTAG> >0x50 JTAG> >0x40 JTAG> >0x40 JTAG> >0x50 JTAG> >0x40 JTAG>AP[1]: Stopped AP scan as end of AP map has been reachedAP[0]: AHB-AP (IDR: 0x14770011)
Iterating through AP map to find AHB-AP to use >0x80 JTAG> >0x50 JTAG> >0x50 JTAG> >0x70 JTAG> >0x40 JTAG> >0x30 JTAG> >0x40 JTAG> >0x40 JTAG>AP[0]: Core foundAP[0]: AHB-AP ROM base: 0xE00FF000 >0x40 JTAG> >0x40 JTAG> >0x30 JTAG> >0x40 JTAG> >0x40 JTAG>CPUID register: 0x411FC231. Implementer code: 0x41 (ARM)Found Cortex-M3 r1p1, Little endian. -- Max. mem block: 0x00011008 -- CPU_ReadMem(4 bytes @ 0xE000EDF0) -- CPU_WriteMem(4 bytes @ 0xE000EDF0) -- CPU_ReadMem(4 bytes @ 0xE0002000)
FPUnit: 6 code (BP) slots and 2 literal slots -- CPU_ReadMem(4 bytes @ 0xE000EDFC) -- CPU_WriteMem(4 bytes @ 0xE000EDFC) -- CPU_ReadMem(4 bytes @ 0xE0001000) -- CPU_WriteMem(4 bytes @ 0xE0001000) -- CPU_ReadMem(4 bytes @ 0xE000ED88) -- CPU_WriteMem(4 bytes @ 0xE000ED88) -- CPU_ReadMem(4 bytes @ 0xE000ED88) -- CPU_WriteMem(4 bytes @ 0xE000ED88)CoreSight components:ROMTbl[0] @ E00FF000 -- CPU_ReadMem(16 bytes @ 0xE00FF000) -- CPU_ReadMem(16 bytes @ 0xE000EFF0) -- CPU_ReadMem(16 bytes @ 0xE000EFE0)
ROMTbl[0][0]: E000E000, CID: B105E00D, PID: 001BB000 SCS -- CPU_ReadMem(16 bytes @ 0xE0001FF0) -- CPU_ReadMem(16 bytes @ 0xE0001FE0)ROMTbl[0][1]: E0001000, CID: B105E00D, PID: 001BB002 DWT -- CPU_ReadMem(16 bytes @ 0xE0002FF0) -- CPU_ReadMem(16 bytes @ 0xE0002FE0)ROMTbl[0][2]: E0002000, CID: B105E00D, PID: 000BB003 FPB -- CPU_ReadMem(16 bytes @ 0xE0000FF0) -- CPU_ReadMem(16 bytes @ 0xE0000FE0)ROMTbl[0][3]: E0000000, CID: B105E00D, PID: 001BB001 ITM -- CPU_ReadMem(16 bytes @ 0xE00FF010)
 -- CPU_ReadMem(16 bytes @ 0xE0040FF0) -- CPU_ReadMem(16 bytes @ 0xE0040FE0)ROMTbl[0][4]: E0040000, CID: B105900D, PID: 001BB923 TPIU-Lite -- CPU_ReadMem(16 bytes @ 0xE0041FF0) -- CPU_ReadMem(16 bytes @ 0xE0041FE0)ROMTbl[0][5]: E0041000, CID: B105900D, PID: 101BB924 ETM-M3 ScanLen=9 NumDevices=2 aId[0]=0x3BA00477 aIrRead[0]=0 aScanLen[0]=0 aScanRead[0]=0 (0107ms, 20177ms total)
T3020 052:032 JLINK_JTAG_GetDeviceID(DeviceIndex = 0)  returns 0x3BA00477 (0000ms, 20177ms total)
T3020 052:032 JLINK_JTAG_GetDeviceInfo(DeviceIndex = 0)  returns 0x00 (0000ms, 20177ms total)
T3020 052:032 JLINK_JTAG_GetDeviceID(DeviceIndex = 1)  returns 0x6414041 (0000ms, 20177ms total)
T3020 052:032 JLINK_JTAG_GetDeviceInfo(DeviceIndex = 1)  returns 0x00 (0000ms, 20177ms total)
T3020 052:032 JLINK_GetDLLVersion()  returns 64600 (0000ms, 20177ms total)
T3020 052:032 JLINK_CORE_GetFound()  returns 0x30000FF (0000ms, 20177ms total)
T3020 052:032 JLINK_GetDebugInfo(0x100 = JLINKARM_ROM_TABLE_ADDR_INDEX) -- Value=0xE00FF000  returns 0x00 (0000ms, 20177ms total)
T3020 052:035 JLINK_GetDebugInfo(0x100 = JLINKARM_ROM_TABLE_ADDR_INDEX) -- Value=0xE00FF000  returns 0x00 (0000ms, 20177ms total)
T3020 052:035 JLINK_GetDebugInfo(0x101 = JLINKARM_DEBUG_INFO_ETM_ADDR_INDEX) -- Value=0xE0041000  returns 0x00 (0000ms, 20177ms total)
T3020 052:035 JLINK_ReadMemEx(0xE0041FD0, 0x0020 Bytes, ..., Flags = 0x02000004) -- CPU_ReadMem(32 bytes @ 0xE0041FD0) - Data: 04 00 00 00 00 00 00 00 00 00 00 00 00 00 00 00 ...  returns 0x20 (0001ms, 20178ms total)
T3020 052:036 JLINK_GetDebugInfo(0x102 = JLINKARM_DEBUG_INFO_MTB_ADDR_INDEX) -- Value=0x00000000  returns 0x00 (0000ms, 20178ms total)
T3020 052:036 JLINK_GetDebugInfo(0x103 = JLINKARM_DEBUG_INFO_TPIU_ADDR_INDEX) -- Value=0xE0040000  returns 0x00 (0000ms, 20178ms total)
T3020 052:036 JLINK_GetDebugInfo(0x104 = JLINKARM_DEBUG_INFO_ITM_ADDR_INDEX) -- Value=0xE0000000  returns 0x00 (0000ms, 20178ms total)
T3020 052:036 JLINK_GetDebugInfo(0x105 = JLINKARM_DEBUG_INFO_DWT_ADDR_INDEX) -- Value=0xE0001000  returns 0x00 (0000ms, 20178ms total)
T3020 052:036 JLINK_GetDebugInfo(0x106 = JLINKARM_DEBUG_INFO_FPB_ADDR_INDEX) -- Value=0xE0002000  returns 0x00 (0000ms, 20178ms total)
T3020 052:036 JLINK_GetDebugInfo(0x107 = JLINKARM_DEBUG_INFO_NVIC_ADDR_INDEX) -- Value=0xE000E000  returns 0x00 (0000ms, 20178ms total)
T3020 052:036 JLINK_GetDebugInfo(0x10C = JLINKARM_DEBUG_INFO_DBG_ADDR_INDEX) -- Value=0xE000EDF0  returns 0x00 (0000ms, 20178ms total)
T3020 052:036 JLINK_GetDebugInfo(0x01 = Unknown) -- Value=0x00000000  returns 0x00 (0000ms, 20178ms total)
T3020 052:036 JLINK_ReadMemU32(0xE000ED00, 0x0001 Items, ...) -- CPU_ReadMem(4 bytes @ 0xE000ED00) - Data: 31 C2 1F 41  returns 1 (0000ms, 20178ms total)
T3020 052:036 JLINK_GetDebugInfo(0x10F = JLINKARM_DEBUG_INFO_HAS_CORTEX_M_SECURITY_EXT_INDEX) -- Value=0x00000000  returns 0x00 (0000ms, 20178ms total)
T3020 052:036 JLINK_SetResetType(JLINKARM_CM3_RESET_TYPE_NORMAL)  returns JLINKARM_CM3_RESET_TYPE_NORMAL (0000ms, 20178ms total)
T3020 052:036 JLINK_Reset() -- CPU is running -- CPU_WriteMem(4 bytes @ 0xE000EDF0) -- CPU is running -- CPU_WriteMem(4 bytes @ 0xE000EDFC)Reset: Halt core after reset via DEMCR.VC_CORERESET.Reset: Reset device via AIRCR.SYSRESETREQ. -- CPU is running -- CPU_WriteMem(4 bytes @ 0xE000ED0C) -- CPU_ReadMem(4 bytes @ 0xE000EDF0) -- CPU_ReadMem(4 bytes @ 0xE000EDF0) -- CPU is running -- CPU_WriteMem(4 bytes @ 0xE000EDF0) -- CPU is running -- CPU_WriteMem(4 bytes @ 0xE000EDFC)
 -- CPU_ReadMem(4 bytes @ 0xE000EDF0) -- CPU_WriteMem(4 bytes @ 0xE000EDFC) -- CPU_WriteMem(4 bytes @ 0xE0001028) -- CPU_WriteMem(4 bytes @ 0xE0001038) -- CPU_WriteMem(4 bytes @ 0xE0001048) -- CPU_WriteMem(4 bytes @ 0xE0001058) -- CPU_WriteMem(4 bytes @ 0xE0002000) -- CPU_ReadMem(4 bytes @ 0xE000EDFC) -- CPU_ReadMem(4 bytes @ 0xE0001000) (0072ms, 20250ms total)
T3020 052:108 JLINK_Halt()  returns 0x00 (0000ms, 20250ms total)
T3020 052:108 JLINK_ReadMemU32(0xE000EDF0, 0x0001 Items, ...) -- CPU_ReadMem(4 bytes @ 0xE000EDF0) - Data: 03 00 03 00  returns 1 (0000ms, 20250ms total)
T3020 052:108 JLINK_WriteU32(0xE000EDF0, 0xA05F0003) -- CPU_WriteMem(4 bytes @ 0xE000EDF0)  returns 0 (0001ms, 20251ms total)
T3020 052:109 JLINK_WriteU32(0xE000EDFC, 0x01000000) -- CPU_WriteMem(4 bytes @ 0xE000EDFC)  returns 0 (0000ms, 20251ms total)
T3020 052:120 JLINK_GetHWStatus(...)  returns 0x00 (0002ms, 20253ms total)
T3020 052:130 JLINK_GetNumBPUnits(Type = 0xFFFFFF00)  returns 0x06 (0000ms, 20253ms total)
T3020 052:130 JLINK_GetNumBPUnits(Type = 0xF0)  returns 0x2000 (0000ms, 20253ms total)
T3020 052:130 JLINK_GetNumWPUnits()  returns 0x04 (0000ms, 20253ms total)
T3020 052:137 JLINK_GetSpeed()  returns 0x1388 (0000ms, 20253ms total)
T3020 052:145 JLINK_ReadMemU32(0xE000E004, 0x0001 Items, ...) -- CPU_ReadMem(4 bytes @ 0xE000E004) - Data: 01 00 00 00  returns 1 (0000ms, 20253ms total)
T3020 052:145 JLINK_ReadMemU32(0xE000E004, 0x0001 Items, ...) -- CPU_ReadMem(4 bytes @ 0xE000E004) - Data: 01 00 00 00  returns 1 (0001ms, 20254ms total)
T3020 052:146 JLINK_WriteMemEx(0xE0001000, 0x001C Bytes, ..., Flags = 0x02000004) - Data: 01 00 00 00 00 00 00 00 00 00 00 00 00 00 00 00 ... -- CPU_WriteMem(28 bytes @ 0xE0001000)  returns 0x1C (0001ms, 20255ms total)
T3020 052:147 JLINK_Halt()  returns 0x00 (0000ms, 20255ms total)
T3020 052:147 JLINK_IsHalted()  returns TRUE (0000ms, 20255ms total)
T3020 052:296 JLINK_WriteMem(0x20000000, 0x0164 Bytes, ...) - Data: 00 BE 0A E0 0D 78 2D 06 68 40 08 24 40 00 00 D3 ... -- CPU_WriteMem(356 bytes @ 0x20000000)  returns 0x164 (0003ms, 20258ms total)
T3020 052:299 JLINK_WriteReg(R0, 0x08000000)  returns 0x00 (0000ms, 20258ms total)
T3020 052:299 JLINK_WriteReg(R1, 0x044AA200)  returns 0x00 (0000ms, 20258ms total)
T3020 052:299 JLINK_WriteReg(R2, 0x00000001)  returns 0x00 (0000ms, 20258ms total)
T3020 052:299 JLINK_WriteReg(R3, 0x00000000)  returns 0x00 (0000ms, 20258ms total)
T3020 052:299 JLINK_WriteReg(R4, 0x00000000)  returns 0x00 (0000ms, 20258ms total)
T3020 052:299 JLINK_WriteReg(R5, 0x00000000)  returns 0x00 (0000ms, 20258ms total)
T3020 052:299 JLINK_WriteReg(R6, 0x00000000)  returns 0x00 (0000ms, 20258ms total)
T3020 052:299 JLINK_WriteReg(R7, 0x00000000)  returns 0x00 (0000ms, 20258ms total)
T3020 052:299 JLINK_WriteReg(R8, 0x00000000)  returns 0x00 (0000ms, 20258ms total)
T3020 052:299 JLINK_WriteReg(R9, 0x20000160)  returns 0x00 (0000ms, 20258ms total)
T3020 052:299 JLINK_WriteReg(R10, 0x00000000)  returns 0x00 (0000ms, 20258ms total)
T3020 052:299 JLINK_WriteReg(R11, 0x00000000)  returns 0x00 (0000ms, 20258ms total)
T3020 052:299 JLINK_WriteReg(R12, 0x00000000)  returns 0x00 (0000ms, 20258ms total)
T3020 052:299 JLINK_WriteReg(R13 (SP), 0x20001000)  returns 0x00 (0000ms, 20258ms total)
T3020 052:299 JLINK_WriteReg(R14, 0x20000001)  returns 0x00 (0000ms, 20258ms total)
T3020 052:299 JLINK_WriteReg(R15 (PC), 0x20000038)  returns 0x00 (0000ms, 20258ms total)
T3020 052:299 JLINK_WriteReg(XPSR, 0x01000000)  returns 0x00 (0000ms, 20258ms total)
T3020 052:299 JLINK_WriteReg(MSP, 0x20001000)  returns 0x00 (0000ms, 20258ms total)
T3020 052:299 JLINK_WriteReg(PSP, 0x20001000)  returns 0x00 (0000ms, 20258ms total)
T3020 052:299 JLINK_WriteReg(CFBP, 0x00000000)  returns 0x00 (0001ms, 20259ms total)
T3020 052:300 JLINK_SetBPEx(Addr = 0x20000000, Type = 0xFFFFFFF2) -- CPU_ReadMem(2 bytes @ 0x20000000)  returns 0x00000001 (0000ms, 20259ms total)
T3020 052:300 JLINK_Go() -- CPU_WriteMem(2 bytes @ 0x20000000) -- CPU_ReadMem(4 bytes @ 0xE0001000) -- CPU_WriteMem(4 bytes @ 0xE0002008) -- CPU_WriteMem(4 bytes @ 0xE000200C) -- CPU_WriteMem(4 bytes @ 0xE0002010) -- CPU_WriteMem(4 bytes @ 0xE0002014) -- CPU_WriteMem(4 bytes @ 0xE0002018) -- CPU_WriteMem(4 bytes @ 0xE000201C) -- CPU_WriteMem(4 bytes @ 0xE0001004) (0004ms, 20263ms total)
T3020 052:304 JLINK_IsHalted() -- CPU_ReadMem(2 bytes @ 0x20000000)  returns TRUE (0002ms, 20265ms total)
T3020 052:306 JLINK_ReadReg(R15 (PC))  returns 0x20000000 (0000ms, 20263ms total)
T3020 052:306 JLINK_ClrBPEx(BPHandle = 0x00000001)  returns 0x00 (0000ms, 20263ms total)
T3020 052:306 JLINK_ReadReg(R0)  returns 0x00000000 (0000ms, 20263ms total)
T3020 052:307 JLINK_WriteReg(R0, 0x08000000)  returns 0x00 (0000ms, 20263ms total)
T3020 052:307 JLINK_WriteReg(R1, 0x00000800)  returns 0x00 (0000ms, 20263ms total)
T3020 052:307 JLINK_WriteReg(R2, 0x000000FF)  returns 0x00 (0000ms, 20263ms total)
T3020 052:307 JLINK_WriteReg(R3, 0x00000000)  returns 0x00 (0000ms, 20263ms total)
T3020 052:307 JLINK_WriteReg(R4, 0x00000000)  returns 0x00 (0000ms, 20263ms total)
T3020 052:307 JLINK_WriteReg(R5, 0x00000000)  returns 0x00 (0000ms, 20263ms total)
T3020 052:307 JLINK_WriteReg(R6, 0x00000000)  returns 0x00 (0000ms, 20263ms total)
T3020 052:307 JLINK_WriteReg(R7, 0x00000000)  returns 0x00 (0000ms, 20263ms total)
T3020 052:307 JLINK_WriteReg(R8, 0x00000000)  returns 0x00 (0000ms, 20263ms total)
T3020 052:307 JLINK_WriteReg(R9, 0x20000160)  returns 0x00 (0000ms, 20263ms total)
T3020 052:307 JLINK_WriteReg(R10, 0x00000000)  returns 0x00 (0001ms, 20264ms total)
T3020 052:308 JLINK_WriteReg(R11, 0x00000000)  returns 0x00 (0000ms, 20264ms total)
T3020 052:308 JLINK_WriteReg(R12, 0x00000000)  returns 0x00 (0000ms, 20264ms total)
T3020 052:308 JLINK_WriteReg(R13 (SP), 0x20001000)  returns 0x00 (0000ms, 20264ms total)
T3020 052:308 JLINK_WriteReg(R14, 0x20000001)  returns 0x00 (0000ms, 20264ms total)
T3020 052:308 JLINK_WriteReg(R15 (PC), 0x20000020)  returns 0x00 (0000ms, 20264ms total)
T3020 052:308 JLINK_WriteReg(XPSR, 0x01000000)  returns 0x00 (0000ms, 20264ms total)
T3020 052:308 JLINK_WriteReg(MSP, 0x20001000)  returns 0x00 (0000ms, 20264ms total)
T3020 052:308 JLINK_WriteReg(PSP, 0x20001000)  returns 0x00 (0000ms, 20264ms total)
T3020 052:308 JLINK_WriteReg(CFBP, 0x00000000)  returns 0x00 (0000ms, 20264ms total)
T3020 052:308 JLINK_SetBPEx(Addr = 0x20000000, Type = 0xFFFFFFF2)  returns 0x00000002 (0000ms, 20264ms total)
T3020 052:308 JLINK_Go() -- CPU_ReadMem(4 bytes @ 0xE0001000) (0002ms, 20266ms total)
T3020 052:310 JLINK_IsHalted() -- CPU_ReadMem(2 bytes @ 0x20000000)  returns TRUE (0002ms, 20268ms total)
T3020 052:312 JLINK_ReadReg(R15 (PC))  returns 0x20000000 (0000ms, 20266ms total)
T3020 052:312 JLINK_ClrBPEx(BPHandle = 0x00000002)  returns 0x00 (0000ms, 20266ms total)
T3020 052:312 JLINK_ReadReg(R0)  returns 0x00000001 (0000ms, 20266ms total)
T3020 052:312 JLINK_WriteReg(R0, 0x08000000)  returns 0x00 (0000ms, 20266ms total)
T3020 052:312 JLINK_WriteReg(R1, 0x00000800)  returns 0x00 (0000ms, 20266ms total)
T3020 052:312 JLINK_WriteReg(R2, 0x000000FF)  returns 0x00 (0000ms, 20266ms total)
T3020 052:312 JLINK_WriteReg(R3, 0x00000000)  returns 0x00 (0000ms, 20266ms total)
T3020 052:312 JLINK_WriteReg(R4, 0x00000000)  returns 0x00 (0000ms, 20266ms total)
T3020 052:312 JLINK_WriteReg(R5, 0x00000000)  returns 0x00 (0000ms, 20266ms total)
T3020 052:312 JLINK_WriteReg(R6, 0x00000000)  returns 0x00 (0000ms, 20266ms total)
T3020 052:312 JLINK_WriteReg(R7, 0x00000000)  returns 0x00 (0000ms, 20266ms total)
T3020 052:312 JLINK_WriteReg(R8, 0x00000000)  returns 0x00 (0000ms, 20266ms total)
T3020 052:312 JLINK_WriteReg(R9, 0x20000160)  returns 0x00 (0000ms, 20266ms total)
T3020 052:312 JLINK_WriteReg(R10, 0x00000000)  returns 0x00 (0000ms, 20266ms total)
T3020 052:312 JLINK_WriteReg(R11, 0x00000000)  returns 0x00 (0000ms, 20266ms total)
T3020 052:312 JLINK_WriteReg(R12, 0x00000000)  returns 0x00 (0000ms, 20266ms total)
T3020 052:312 JLINK_WriteReg(R13 (SP), 0x20001000)  returns 0x00 (0000ms, 20266ms total)
T3020 052:312 JLINK_WriteReg(R14, 0x20000001)  returns 0x00 (0001ms, 20267ms total)
T3020 052:313 JLINK_WriteReg(R15 (PC), 0x200000B6)  returns 0x00 (0000ms, 20267ms total)
T3020 052:313 JLINK_WriteReg(XPSR, 0x01000000)  returns 0x00 (0000ms, 20267ms total)
T3020 052:313 JLINK_WriteReg(MSP, 0x20001000)  returns 0x00 (0000ms, 20267ms total)
T3020 052:313 JLINK_WriteReg(PSP, 0x20001000)  returns 0x00 (0000ms, 20267ms total)
T3020 052:313 JLINK_WriteReg(CFBP, 0x00000000)  returns 0x00 (0000ms, 20267ms total)
T3020 052:313 JLINK_SetBPEx(Addr = 0x20000000, Type = 0xFFFFFFF2)  returns 0x00000003 (0000ms, 20267ms total)
T3020 052:313 JLINK_Go() -- CPU_ReadMem(4 bytes @ 0xE0001000) (0002ms, 20269ms total)
T3020 052:315 JLINK_IsHalted()  returns FALSE (0000ms, 20269ms total)
T3020 052:361 JLINK_IsHalted() -- CPU_ReadMem(2 bytes @ 0x20000000)  returns TRUE (0002ms, 20271ms total)
T3020 052:363 JLINK_ReadReg(R15 (PC))  returns 0x20000000 (0000ms, 20269ms total)
T3020 052:363 JLINK_ClrBPEx(BPHandle = 0x00000003)  returns 0x00 (0000ms, 20269ms total)
T3020 052:363 JLINK_ReadReg(R0)  returns 0x00000000 (0000ms, 20269ms total)
T3020 052:364 JLINK_WriteReg(R0, 0x08000800)  returns 0x00 (0000ms, 20269ms total)
T3020 052:364 JLINK_WriteReg(R1, 0x00000800)  returns 0x00 (0000ms, 20269ms total)
T3020 052:364 JLINK_WriteReg(R2, 0x000000FF)  returns 0x00 (0000ms, 20269ms total)
T3020 052:364 JLINK_WriteReg(R3, 0x00000000)  returns 0x00 (0000ms, 20269ms total)
T3020 052:364 JLINK_WriteReg(R4, 0x00000000)  returns 0x00 (0000ms, 20269ms total)
T3020 052:364 JLINK_WriteReg(R5, 0x00000000)  returns 0x00 (0000ms, 20269ms total)
T3020 052:364 JLINK_WriteReg(R6, 0x00000000)  returns 0x00 (0000ms, 20269ms total)
T3020 052:364 JLINK_WriteReg(R7, 0x00000000)  returns 0x00 (0000ms, 20269ms total)
T3020 052:364 JLINK_WriteReg(R8, 0x00000000)  returns 0x00 (0000ms, 20269ms total)
T3020 052:364 JLINK_WriteReg(R9, 0x20000160)  returns 0x00 (0000ms, 20269ms total)
T3020 052:364 JLINK_WriteReg(R10, 0x00000000)  returns 0x00 (0000ms, 20269ms total)
T3020 052:364 JLINK_WriteReg(R11, 0x00000000)  returns 0x00 (0000ms, 20269ms total)
T3020 052:364 JLINK_WriteReg(R12, 0x00000000)  returns 0x00 (0000ms, 20269ms total)
T3020 052:364 JLINK_WriteReg(R13 (SP), 0x20001000)  returns 0x00 (0000ms, 20269ms total)
T3020 052:364 JLINK_WriteReg(R14, 0x20000001)  returns 0x00 (0000ms, 20269ms total)
T3020 052:364 JLINK_WriteReg(R15 (PC), 0x20000020)  returns 0x00 (0000ms, 20269ms total)
T3020 052:364 JLINK_WriteReg(XPSR, 0x01000000)  returns 0x00 (0000ms, 20269ms total)
T3020 052:364 JLINK_WriteReg(MSP, 0x20001000)  returns 0x00 (0000ms, 20269ms total)
T3020 052:364 JLINK_WriteReg(PSP, 0x20001000)  returns 0x00 (0000ms, 20269ms total)
T3020 052:364 JLINK_WriteReg(CFBP, 0x00000000)  returns 0x00 (0000ms, 20269ms total)
T3020 052:364 JLINK_SetBPEx(Addr = 0x20000000, Type = 0xFFFFFFF2)  returns 0x00000004 (0000ms, 20269ms total)
T3020 052:364 JLINK_Go() -- CPU_ReadMem(4 bytes @ 0xE0001000) (0002ms, 20271ms total)
T3020 052:366 JLINK_IsHalted() -- CPU_ReadMem(2 bytes @ 0x20000000)  returns TRUE (0002ms, 20273ms total)
T3020 052:368 JLINK_ReadReg(R15 (PC))  returns 0x20000000 (0000ms, 20271ms total)
T3020 052:368 JLINK_ClrBPEx(BPHandle = 0x00000004)  returns 0x00 (0000ms, 20271ms total)
T3020 052:368 JLINK_ReadReg(R0)  returns 0x00000001 (0000ms, 20271ms total)
T3020 052:368 JLINK_WriteReg(R0, 0x08000800)  returns 0x00 (0000ms, 20271ms total)
T3020 052:368 JLINK_WriteReg(R1, 0x00000800)  returns 0x00 (0000ms, 20271ms total)
T3020 052:368 JLINK_WriteReg(R2, 0x000000FF)  returns 0x00 (0000ms, 20271ms total)
T3020 052:368 JLINK_WriteReg(R3, 0x00000000)  returns 0x00 (0000ms, 20271ms total)
T3020 052:368 JLINK_WriteReg(R4, 0x00000000)  returns 0x00 (0000ms, 20271ms total)
T3020 052:368 JLINK_WriteReg(R5, 0x00000000)  returns 0x00 (0000ms, 20271ms total)
T3020 052:368 JLINK_WriteReg(R6, 0x00000000)  returns 0x00 (0001ms, 20272ms total)
T3020 052:369 JLINK_WriteReg(R7, 0x00000000)  returns 0x00 (0000ms, 20272ms total)
T3020 052:369 JLINK_WriteReg(R8, 0x00000000)  returns 0x00 (0000ms, 20272ms total)
T3020 052:369 JLINK_WriteReg(R9, 0x20000160)  returns 0x00 (0000ms, 20272ms total)
T3020 052:369 JLINK_WriteReg(R10, 0x00000000)  returns 0x00 (0000ms, 20272ms total)
T3020 052:369 JLINK_WriteReg(R11, 0x00000000)  returns 0x00 (0000ms, 20272ms total)
T3020 052:369 JLINK_WriteReg(R12, 0x00000000)  returns 0x00 (0000ms, 20272ms total)
T3020 052:369 JLINK_WriteReg(R13 (SP), 0x20001000)  returns 0x00 (0000ms, 20272ms total)
T3020 052:369 JLINK_WriteReg(R14, 0x20000001)  returns 0x00 (0000ms, 20272ms total)
T3020 052:369 JLINK_WriteReg(R15 (PC), 0x200000B6)  returns 0x00 (0000ms, 20272ms total)
T3020 052:369 JLINK_WriteReg(XPSR, 0x01000000)  returns 0x00 (0000ms, 20272ms total)
T3020 052:369 JLINK_WriteReg(MSP, 0x20001000)  returns 0x00 (0000ms, 20272ms total)
T3020 052:369 JLINK_WriteReg(PSP, 0x20001000)  returns 0x00 (0000ms, 20272ms total)
T3020 052:369 JLINK_WriteReg(CFBP, 0x00000000)  returns 0x00 (0000ms, 20272ms total)
T3020 052:369 JLINK_SetBPEx(Addr = 0x20000000, Type = 0xFFFFFFF2)  returns 0x00000005 (0000ms, 20272ms total)
T3020 052:369 JLINK_Go() -- CPU_ReadMem(4 bytes @ 0xE0001000) (0002ms, 20274ms total)
T3020 052:371 JLINK_IsHalted()  returns FALSE (0000ms, 20274ms total)
T3020 052:374 JLINK_IsHalted()  returns FALSE (0000ms, 20274ms total)
T3020 052:376 JLINK_IsHalted()  returns FALSE (0000ms, 20274ms total)
T3020 052:382 JLINK_IsHalted()  returns FALSE (0000ms, 20274ms total)
T3020 052:384 JLINK_IsHalted()  returns FALSE (0000ms, 20274ms total)
T3020 052:386 JLINK_IsHalted()  returns FALSE (0000ms, 20274ms total)
T3020 052:388 JLINK_IsHalted()  returns FALSE (0000ms, 20274ms total)
T3020 052:390 JLINK_IsHalted()  returns FALSE (0000ms, 20274ms total)
T3020 052:392 JLINK_IsHalted()  returns FALSE (0000ms, 20274ms total)
T3020 052:394 JLINK_IsHalted() -- CPU_ReadMem(2 bytes @ 0x20000000)  returns TRUE (0002ms, 20276ms total)
T3020 052:396 JLINK_ReadReg(R15 (PC))  returns 0x20000000 (0000ms, 20274ms total)
T3020 052:396 JLINK_ClrBPEx(BPHandle = 0x00000005)  returns 0x00 (0000ms, 20274ms total)
T3020 052:396 JLINK_ReadReg(R0)  returns 0x00000000 (0000ms, 20274ms total)
T3020 052:396 JLINK_WriteReg(R0, 0x08001000)  returns 0x00 (0000ms, 20274ms total)
T3020 052:396 JLINK_WriteReg(R1, 0x00000800)  returns 0x00 (0000ms, 20274ms total)
T3020 052:396 JLINK_WriteReg(R2, 0x000000FF)  returns 0x00 (0000ms, 20274ms total)
T3020 052:396 JLINK_WriteReg(R3, 0x00000000)  returns 0x00 (0000ms, 20274ms total)
T3020 052:396 JLINK_WriteReg(R4, 0x00000000)  returns 0x00 (0000ms, 20274ms total)
T3020 052:396 JLINK_WriteReg(R5, 0x00000000)  returns 0x00 (0000ms, 20274ms total)
T3020 052:397 JLINK_WriteReg(R6, 0x00000000)  returns 0x00 (0000ms, 20275ms total)
T3020 052:397 JLINK_WriteReg(R7, 0x00000000)  returns 0x00 (0000ms, 20275ms total)
T3020 052:397 JLINK_WriteReg(R8, 0x00000000)  returns 0x00 (0000ms, 20275ms total)
T3020 052:397 JLINK_WriteReg(R9, 0x20000160)  returns 0x00 (0000ms, 20275ms total)
T3020 052:397 JLINK_WriteReg(R10, 0x00000000)  returns 0x00 (0000ms, 20275ms total)
T3020 052:397 JLINK_WriteReg(R11, 0x00000000)  returns 0x00 (0000ms, 20275ms total)
T3020 052:397 JLINK_WriteReg(R12, 0x00000000)  returns 0x00 (0000ms, 20275ms total)
T3020 052:397 JLINK_WriteReg(R13 (SP), 0x20001000)  returns 0x00 (0000ms, 20275ms total)
T3020 052:397 JLINK_WriteReg(R14, 0x20000001)  returns 0x00 (0000ms, 20275ms total)
T3020 052:397 JLINK_WriteReg(R15 (PC), 0x20000020)  returns 0x00 (0000ms, 20275ms total)
T3020 052:397 JLINK_WriteReg(XPSR, 0x01000000)  returns 0x00 (0000ms, 20275ms total)
T3020 052:397 JLINK_WriteReg(MSP, 0x20001000)  returns 0x00 (0000ms, 20275ms total)
T3020 052:397 JLINK_WriteReg(PSP, 0x20001000)  returns 0x00 (0000ms, 20275ms total)
T3020 052:397 JLINK_WriteReg(CFBP, 0x00000000)  returns 0x00 (0000ms, 20275ms total)
T3020 052:397 JLINK_SetBPEx(Addr = 0x20000000, Type = 0xFFFFFFF2)  returns 0x00000006 (0000ms, 20275ms total)
T3020 052:397 JLINK_Go() -- CPU_ReadMem(4 bytes @ 0xE0001000) (0002ms, 20277ms total)
T3020 052:399 JLINK_IsHalted() -- CPU_ReadMem(2 bytes @ 0x20000000)  returns TRUE (0002ms, 20279ms total)
T3020 052:401 JLINK_ReadReg(R15 (PC))  returns 0x20000000 (0000ms, 20277ms total)
T3020 052:401 JLINK_ClrBPEx(BPHandle = 0x00000006)  returns 0x00 (0000ms, 20277ms total)
T3020 052:401 JLINK_ReadReg(R0)  returns 0x00000001 (0000ms, 20277ms total)
T3020 052:401 JLINK_WriteReg(R0, 0x08001000)  returns 0x00 (0000ms, 20277ms total)
T3020 052:401 JLINK_WriteReg(R1, 0x00000800)  returns 0x00 (0000ms, 20277ms total)
T3020 052:401 JLINK_WriteReg(R2, 0x000000FF)  returns 0x00 (0000ms, 20277ms total)
T3020 052:401 JLINK_WriteReg(R3, 0x00000000)  returns 0x00 (0000ms, 20277ms total)
T3020 052:401 JLINK_WriteReg(R4, 0x00000000)  returns 0x00 (0000ms, 20277ms total)
T3020 052:401 JLINK_WriteReg(R5, 0x00000000)  returns 0x00 (0000ms, 20277ms total)
T3020 052:401 JLINK_WriteReg(R6, 0x00000000)  returns 0x00 (0001ms, 20278ms total)
T3020 052:402 JLINK_WriteReg(R7, 0x00000000)  returns 0x00 (0000ms, 20278ms total)
T3020 052:402 JLINK_WriteReg(R8, 0x00000000)  returns 0x00 (0000ms, 20278ms total)
T3020 052:402 JLINK_WriteReg(R9, 0x20000160)  returns 0x00 (0000ms, 20278ms total)
T3020 052:402 JLINK_WriteReg(R10, 0x00000000)  returns 0x00 (0000ms, 20278ms total)
T3020 052:402 JLINK_WriteReg(R11, 0x00000000)  returns 0x00 (0000ms, 20278ms total)
T3020 052:402 JLINK_WriteReg(R12, 0x00000000)  returns 0x00 (0000ms, 20278ms total)
T3020 052:402 JLINK_WriteReg(R13 (SP), 0x20001000)  returns 0x00 (0000ms, 20278ms total)
T3020 052:402 JLINK_WriteReg(R14, 0x20000001)  returns 0x00 (0000ms, 20278ms total)
T3020 052:402 JLINK_WriteReg(R15 (PC), 0x200000B6)  returns 0x00 (0000ms, 20278ms total)
T3020 052:402 JLINK_WriteReg(XPSR, 0x01000000)  returns 0x00 (0000ms, 20278ms total)
T3020 052:402 JLINK_WriteReg(MSP, 0x20001000)  returns 0x00 (0000ms, 20278ms total)
T3020 052:402 JLINK_WriteReg(PSP, 0x20001000)  returns 0x00 (0000ms, 20278ms total)
T3020 052:402 JLINK_WriteReg(CFBP, 0x00000000)  returns 0x00 (0000ms, 20278ms total)
T3020 052:402 JLINK_SetBPEx(Addr = 0x20000000, Type = 0xFFFFFFF2)  returns 0x00000007 (0000ms, 20278ms total)
T3020 052:402 JLINK_Go() -- CPU_ReadMem(4 bytes @ 0xE0001000) (0002ms, 20280ms total)
T3020 052:404 JLINK_IsHalted()  returns FALSE (0001ms, 20281ms total)
T3020 052:407 JLINK_IsHalted()  returns FALSE (0001ms, 20281ms total)
T3020 052:409 JLINK_IsHalted()  returns FALSE (0000ms, 20280ms total)
T3020 052:411 JLINK_IsHalted()  returns FALSE (0000ms, 20280ms total)
T3020 052:413 JLINK_IsHalted()  returns FALSE (0000ms, 20280ms total)
T3020 052:416 JLINK_IsHalted()  returns FALSE (0000ms, 20280ms total)
T3020 052:418 JLINK_IsHalted()  returns FALSE (0000ms, 20280ms total)
T3020 052:420 JLINK_IsHalted()  returns FALSE (0000ms, 20280ms total)
T3020 052:425 JLINK_IsHalted()  returns FALSE (0000ms, 20280ms total)
T3020 052:427 JLINK_IsHalted() -- CPU_ReadMem(2 bytes @ 0x20000000)  returns TRUE (0002ms, 20282ms total)
T3020 052:429 JLINK_ReadReg(R15 (PC))  returns 0x20000000 (0000ms, 20280ms total)
T3020 052:429 JLINK_ClrBPEx(BPHandle = 0x00000007)  returns 0x00 (0000ms, 20280ms total)
T3020 052:429 JLINK_ReadReg(R0)  returns 0x00000000 (0000ms, 20280ms total)
T3020 052:429 JLINK_WriteReg(R0, 0x08001800)  returns 0x00 (0000ms, 20280ms total)
T3020 052:429 JLINK_WriteReg(R1, 0x00000800)  returns 0x00 (0000ms, 20280ms total)
T3020 052:429 JLINK_WriteReg(R2, 0x000000FF)  returns 0x00 (0000ms, 20280ms total)
T3020 052:429 JLINK_WriteReg(R3, 0x00000000)  returns 0x00 (0000ms, 20280ms total)
T3020 052:429 JLINK_WriteReg(R4, 0x00000000)  returns 0x00 (0000ms, 20280ms total)
T3020 052:429 JLINK_WriteReg(R5, 0x00000000)  returns 0x00 (0000ms, 20280ms total)
T3020 052:429 JLINK_WriteReg(R6, 0x00000000)  returns 0x00 (0000ms, 20280ms total)
T3020 052:429 JLINK_WriteReg(R7, 0x00000000)  returns 0x00 (0000ms, 20280ms total)
T3020 052:429 JLINK_WriteReg(R8, 0x00000000)  returns 0x00 (0000ms, 20280ms total)
T3020 052:429 JLINK_WriteReg(R9, 0x20000160)  returns 0x00 (0001ms, 20281ms total)
T3020 052:430 JLINK_WriteReg(R10, 0x00000000)  returns 0x00 (0000ms, 20281ms total)
T3020 052:430 JLINK_WriteReg(R11, 0x00000000)  returns 0x00 (0000ms, 20281ms total)
T3020 052:430 JLINK_WriteReg(R12, 0x00000000)  returns 0x00 (0000ms, 20281ms total)
T3020 052:430 JLINK_WriteReg(R13 (SP), 0x20001000)  returns 0x00 (0000ms, 20281ms total)
T3020 052:430 JLINK_WriteReg(R14, 0x20000001)  returns 0x00 (0000ms, 20281ms total)
T3020 052:430 JLINK_WriteReg(R15 (PC), 0x20000020)  returns 0x00 (0000ms, 20281ms total)
T3020 052:430 JLINK_WriteReg(XPSR, 0x01000000)  returns 0x00 (0000ms, 20281ms total)
T3020 052:430 JLINK_WriteReg(MSP, 0x20001000)  returns 0x00 (0000ms, 20281ms total)
T3020 052:430 JLINK_WriteReg(PSP, 0x20001000)  returns 0x00 (0000ms, 20281ms total)
T3020 052:430 JLINK_WriteReg(CFBP, 0x00000000)  returns 0x00 (0000ms, 20281ms total)
T3020 052:430 JLINK_SetBPEx(Addr = 0x20000000, Type = 0xFFFFFFF2)  returns 0x00000008 (0000ms, 20281ms total)
T3020 052:430 JLINK_Go() -- CPU_ReadMem(4 bytes @ 0xE0001000) (0002ms, 20283ms total)
T3020 052:432 JLINK_IsHalted() -- CPU_ReadMem(2 bytes @ 0x20000000)  returns TRUE (0002ms, 20285ms total)
T3020 052:434 JLINK_ReadReg(R15 (PC))  returns 0x20000000 (0001ms, 20284ms total)
T3020 052:435 JLINK_ClrBPEx(BPHandle = 0x00000008)  returns 0x00 (0000ms, 20284ms total)
T3020 052:435 JLINK_ReadReg(R0)  returns 0x00000001 (0000ms, 20284ms total)
T3020 052:435 JLINK_WriteReg(R0, 0x08001800)  returns 0x00 (0000ms, 20284ms total)
T3020 052:435 JLINK_WriteReg(R1, 0x00000800)  returns 0x00 (0000ms, 20284ms total)
T3020 052:435 JLINK_WriteReg(R2, 0x000000FF)  returns 0x00 (0000ms, 20284ms total)
T3020 052:435 JLINK_WriteReg(R3, 0x00000000)  returns 0x00 (0000ms, 20284ms total)
T3020 052:435 JLINK_WriteReg(R4, 0x00000000)  returns 0x00 (0000ms, 20284ms total)
T3020 052:435 JLINK_WriteReg(R5, 0x00000000)  returns 0x00 (0000ms, 20284ms total)
T3020 052:435 JLINK_WriteReg(R6, 0x00000000)  returns 0x00 (0000ms, 20284ms total)
T3020 052:435 JLINK_WriteReg(R7, 0x00000000)  returns 0x00 (0000ms, 20284ms total)
T3020 052:435 JLINK_WriteReg(R8, 0x00000000)  returns 0x00 (0000ms, 20284ms total)
T3020 052:435 JLINK_WriteReg(R9, 0x20000160)  returns 0x00 (0000ms, 20284ms total)
T3020 052:435 JLINK_WriteReg(R10, 0x00000000)  returns 0x00 (0000ms, 20284ms total)
T3020 052:435 JLINK_WriteReg(R11, 0x00000000)  returns 0x00 (0000ms, 20284ms total)
T3020 052:435 JLINK_WriteReg(R12, 0x00000000)  returns 0x00 (0000ms, 20284ms total)
T3020 052:435 JLINK_WriteReg(R13 (SP), 0x20001000)  returns 0x00 (0000ms, 20284ms total)
T3020 052:435 JLINK_WriteReg(R14, 0x20000001)  returns 0x00 (0000ms, 20284ms total)
T3020 052:435 JLINK_WriteReg(R15 (PC), 0x200000B6)  returns 0x00 (0000ms, 20284ms total)
T3020 052:435 JLINK_WriteReg(XPSR, 0x01000000)  returns 0x00 (0000ms, 20284ms total)
T3020 052:435 JLINK_WriteReg(MSP, 0x20001000)  returns 0x00 (0000ms, 20284ms total)
T3020 052:435 JLINK_WriteReg(PSP, 0x20001000)  returns 0x00 (0000ms, 20284ms total)
T3020 052:435 JLINK_WriteReg(CFBP, 0x00000000)  returns 0x00 (0000ms, 20284ms total)
T3020 052:435 JLINK_SetBPEx(Addr = 0x20000000, Type = 0xFFFFFFF2)  returns 0x00000009 (0000ms, 20284ms total)
T3020 052:435 JLINK_Go() -- CPU_ReadMem(4 bytes @ 0xE0001000) (0002ms, 20286ms total)
T3020 052:437 JLINK_IsHalted()  returns FALSE (0001ms, 20287ms total)
T3020 052:441 JLINK_IsHalted()  returns FALSE (0000ms, 20286ms total)
T3020 052:443 JLINK_IsHalted()  returns FALSE (0000ms, 20286ms total)
T3020 052:445 JLINK_IsHalted()  returns FALSE (0000ms, 20286ms total)
T3020 052:448 JLINK_IsHalted()  returns FALSE (0000ms, 20286ms total)
T3020 052:450 JLINK_IsHalted()  returns FALSE (0000ms, 20286ms total)
T3020 052:452 JLINK_IsHalted()  returns FALSE (0000ms, 20286ms total)
T3020 052:454 JLINK_IsHalted()  returns FALSE (0000ms, 20286ms total)
T3020 052:458 JLINK_IsHalted()  returns FALSE (0000ms, 20286ms total)
T3020 052:460 JLINK_IsHalted() -- CPU_ReadMem(2 bytes @ 0x20000000)  returns TRUE (0002ms, 20288ms total)
T3020 052:462 JLINK_ReadReg(R15 (PC))  returns 0x20000000 (0000ms, 20286ms total)
T3020 052:462 JLINK_ClrBPEx(BPHandle = 0x00000009)  returns 0x00 (0000ms, 20286ms total)
T3020 052:462 JLINK_ReadReg(R0)  returns 0x00000000 (0000ms, 20286ms total)
T3020 052:462 JLINK_WriteReg(R0, 0x08002000)  returns 0x00 (0000ms, 20286ms total)
T3020 052:462 JLINK_WriteReg(R1, 0x00000800)  returns 0x00 (0000ms, 20286ms total)
T3020 052:462 JLINK_WriteReg(R2, 0x000000FF)  returns 0x00 (0001ms, 20287ms total)
T3020 052:463 JLINK_WriteReg(R3, 0x00000000)  returns 0x00 (0000ms, 20287ms total)
T3020 052:463 JLINK_WriteReg(R4, 0x00000000)  returns 0x00 (0000ms, 20287ms total)
T3020 052:463 JLINK_WriteReg(R5, 0x00000000)  returns 0x00 (0000ms, 20287ms total)
T3020 052:463 JLINK_WriteReg(R6, 0x00000000)  returns 0x00 (0000ms, 20287ms total)
T3020 052:463 JLINK_WriteReg(R7, 0x00000000)  returns 0x00 (0000ms, 20287ms total)
T3020 052:463 JLINK_WriteReg(R8, 0x00000000)  returns 0x00 (0000ms, 20287ms total)
T3020 052:463 JLINK_WriteReg(R9, 0x20000160)  returns 0x00 (0000ms, 20287ms total)
T3020 052:463 JLINK_WriteReg(R10, 0x00000000)  returns 0x00 (0000ms, 20287ms total)
T3020 052:463 JLINK_WriteReg(R11, 0x00000000)  returns 0x00 (0000ms, 20287ms total)
T3020 052:463 JLINK_WriteReg(R12, 0x00000000)  returns 0x00 (0000ms, 20287ms total)
T3020 052:463 JLINK_WriteReg(R13 (SP), 0x20001000)  returns 0x00 (0000ms, 20287ms total)
T3020 052:463 JLINK_WriteReg(R14, 0x20000001)  returns 0x00 (0000ms, 20287ms total)
T3020 052:463 JLINK_WriteReg(R15 (PC), 0x20000020)  returns 0x00 (0000ms, 20287ms total)
T3020 052:463 JLINK_WriteReg(XPSR, 0x01000000)  returns 0x00 (0000ms, 20287ms total)
T3020 052:463 JLINK_WriteReg(MSP, 0x20001000)  returns 0x00 (0000ms, 20287ms total)
T3020 052:463 JLINK_WriteReg(PSP, 0x20001000)  returns 0x00 (0000ms, 20287ms total)
T3020 052:463 JLINK_WriteReg(CFBP, 0x00000000)  returns 0x00 (0000ms, 20287ms total)
T3020 052:463 JLINK_SetBPEx(Addr = 0x20000000, Type = 0xFFFFFFF2)  returns 0x0000000A (0000ms, 20287ms total)
T3020 052:463 JLINK_Go() -- CPU_ReadMem(4 bytes @ 0xE0001000) (0002ms, 20289ms total)
T3020 052:465 JLINK_IsHalted() -- CPU_ReadMem(2 bytes @ 0x20000000)  returns TRUE (0002ms, 20291ms total)
T3020 052:467 JLINK_ReadReg(R15 (PC))  returns 0x20000000 (0000ms, 20289ms total)
T3020 052:467 JLINK_ClrBPEx(BPHandle = 0x0000000A)  returns 0x00 (0000ms, 20289ms total)
T3020 052:467 JLINK_ReadReg(R0)  returns 0x00000001 (0000ms, 20289ms total)
T3020 052:467 JLINK_WriteReg(R0, 0x08002000)  returns 0x00 (0000ms, 20289ms total)
T3020 052:467 JLINK_WriteReg(R1, 0x00000800)  returns 0x00 (0000ms, 20289ms total)
T3020 052:467 JLINK_WriteReg(R2, 0x000000FF)  returns 0x00 (0000ms, 20289ms total)
T3020 052:467 JLINK_WriteReg(R3, 0x00000000)  returns 0x00 (0000ms, 20289ms total)
T3020 052:467 JLINK_WriteReg(R4, 0x00000000)  returns 0x00 (0001ms, 20290ms total)
T3020 052:468 JLINK_WriteReg(R5, 0x00000000)  returns 0x00 (0000ms, 20290ms total)
T3020 052:468 JLINK_WriteReg(R6, 0x00000000)  returns 0x00 (0000ms, 20290ms total)
T3020 052:468 JLINK_WriteReg(R7, 0x00000000)  returns 0x00 (0000ms, 20290ms total)
T3020 052:468 JLINK_WriteReg(R8, 0x00000000)  returns 0x00 (0000ms, 20290ms total)
T3020 052:468 JLINK_WriteReg(R9, 0x20000160)  returns 0x00 (0000ms, 20290ms total)
T3020 052:468 JLINK_WriteReg(R10, 0x00000000)  returns 0x00 (0000ms, 20290ms total)
T3020 052:468 JLINK_WriteReg(R11, 0x00000000)  returns 0x00 (0000ms, 20290ms total)
T3020 052:468 JLINK_WriteReg(R12, 0x00000000)  returns 0x00 (0000ms, 20290ms total)
T3020 052:468 JLINK_WriteReg(R13 (SP), 0x20001000)  returns 0x00 (0000ms, 20290ms total)
T3020 052:468 JLINK_WriteReg(R14, 0x20000001)  returns 0x00 (0000ms, 20290ms total)
T3020 052:468 JLINK_WriteReg(R15 (PC), 0x200000B6)  returns 0x00 (0000ms, 20290ms total)
T3020 052:468 JLINK_WriteReg(XPSR, 0x01000000)  returns 0x00 (0000ms, 20290ms total)
T3020 052:468 JLINK_WriteReg(MSP, 0x20001000)  returns 0x00 (0000ms, 20290ms total)
T3020 052:468 JLINK_WriteReg(PSP, 0x20001000)  returns 0x00 (0000ms, 20290ms total)
T3020 052:468 JLINK_WriteReg(CFBP, 0x00000000)  returns 0x00 (0000ms, 20290ms total)
T3020 052:468 JLINK_SetBPEx(Addr = 0x20000000, Type = 0xFFFFFFF2)  returns 0x0000000B (0000ms, 20290ms total)
T3020 052:468 JLINK_Go() -- CPU_ReadMem(4 bytes @ 0xE0001000) (0002ms, 20292ms total)
T3020 052:470 JLINK_IsHalted()  returns FALSE (0000ms, 20292ms total)
T3020 052:474 JLINK_IsHalted()  returns FALSE (0000ms, 20292ms total)
T3020 052:476 JLINK_IsHalted()  returns FALSE (0000ms, 20292ms total)
T3020 052:478 JLINK_IsHalted()  returns FALSE (0000ms, 20292ms total)
T3020 052:482 JLINK_IsHalted()  returns FALSE (0000ms, 20292ms total)
T3020 052:484 JLINK_IsHalted()  returns FALSE (0000ms, 20292ms total)
T3020 052:486 JLINK_IsHalted()  returns FALSE (0000ms, 20292ms total)
T3020 052:489 JLINK_IsHalted()  returns FALSE (0000ms, 20292ms total)
T3020 052:491 JLINK_IsHalted()  returns FALSE (0000ms, 20292ms total)
T3020 052:493 JLINK_IsHalted() -- CPU_ReadMem(2 bytes @ 0x20000000)  returns TRUE (0002ms, 20294ms total)
T3020 052:495 JLINK_ReadReg(R15 (PC))  returns 0x20000000 (0000ms, 20292ms total)
T3020 052:495 JLINK_ClrBPEx(BPHandle = 0x0000000B)  returns 0x00 (0000ms, 20292ms total)
T3020 052:495 JLINK_ReadReg(R0)  returns 0x00000000 (0000ms, 20292ms total)
T3020 052:495 JLINK_WriteReg(R0, 0x08002800)  returns 0x00 (0001ms, 20293ms total)
T3020 052:496 JLINK_WriteReg(R1, 0x00000800)  returns 0x00 (0000ms, 20293ms total)
T3020 052:496 JLINK_WriteReg(R2, 0x000000FF)  returns 0x00 (0000ms, 20293ms total)
T3020 052:496 JLINK_WriteReg(R3, 0x00000000)  returns 0x00 (0000ms, 20293ms total)
T3020 052:496 JLINK_WriteReg(R4, 0x00000000)  returns 0x00 (0000ms, 20293ms total)
T3020 052:496 JLINK_WriteReg(R5, 0x00000000)  returns 0x00 (0000ms, 20293ms total)
T3020 052:496 JLINK_WriteReg(R6, 0x00000000)  returns 0x00 (0000ms, 20293ms total)
T3020 052:496 JLINK_WriteReg(R7, 0x00000000)  returns 0x00 (0000ms, 20293ms total)
T3020 052:496 JLINK_WriteReg(R8, 0x00000000)  returns 0x00 (0000ms, 20293ms total)
T3020 052:496 JLINK_WriteReg(R9, 0x20000160)  returns 0x00 (0000ms, 20293ms total)
T3020 052:496 JLINK_WriteReg(R10, 0x00000000)  returns 0x00 (0000ms, 20293ms total)
T3020 052:496 JLINK_WriteReg(R11, 0x00000000)  returns 0x00 (0000ms, 20293ms total)
T3020 052:496 JLINK_WriteReg(R12, 0x00000000)  returns 0x00 (0000ms, 20293ms total)
T3020 052:496 JLINK_WriteReg(R13 (SP), 0x20001000)  returns 0x00 (0000ms, 20293ms total)
T3020 052:496 JLINK_WriteReg(R14, 0x20000001)  returns 0x00 (0000ms, 20293ms total)
T3020 052:496 JLINK_WriteReg(R15 (PC), 0x20000020)  returns 0x00 (0000ms, 20293ms total)
T3020 052:496 JLINK_WriteReg(XPSR, 0x01000000)  returns 0x00 (0000ms, 20293ms total)
T3020 052:496 JLINK_WriteReg(MSP, 0x20001000)  returns 0x00 (0000ms, 20293ms total)
T3020 052:496 JLINK_WriteReg(PSP, 0x20001000)  returns 0x00 (0000ms, 20293ms total)
T3020 052:496 JLINK_WriteReg(CFBP, 0x00000000)  returns 0x00 (0000ms, 20293ms total)
T3020 052:496 JLINK_SetBPEx(Addr = 0x20000000, Type = 0xFFFFFFF2)  returns 0x0000000C (0000ms, 20293ms total)
T3020 052:496 JLINK_Go() -- CPU_ReadMem(4 bytes @ 0xE0001000) (0002ms, 20295ms total)
T3020 052:498 JLINK_IsHalted() -- CPU_ReadMem(2 bytes @ 0x20000000)  returns TRUE (0002ms, 20297ms total)
T3020 052:500 JLINK_ReadReg(R15 (PC))  returns 0x20000000 (0000ms, 20295ms total)
T3020 052:500 JLINK_ClrBPEx(BPHandle = 0x0000000C)  returns 0x00 (0000ms, 20295ms total)
T3020 052:500 JLINK_ReadReg(R0)  returns 0x00000001 (0000ms, 20295ms total)
T3020 052:500 JLINK_WriteReg(R0, 0x08002800)  returns 0x00 (0000ms, 20295ms total)
T3020 052:500 JLINK_WriteReg(R1, 0x00000800)  returns 0x00 (0000ms, 20295ms total)
T3020 052:500 JLINK_WriteReg(R2, 0x000000FF)  returns 0x00 (0000ms, 20295ms total)
T3020 052:500 JLINK_WriteReg(R3, 0x00000000)  returns 0x00 (0000ms, 20295ms total)
T3020 052:501 JLINK_WriteReg(R4, 0x00000000)  returns 0x00 (0000ms, 20296ms total)
T3020 052:501 JLINK_WriteReg(R5, 0x00000000)  returns 0x00 (0000ms, 20296ms total)
T3020 052:501 JLINK_WriteReg(R6, 0x00000000)  returns 0x00 (0000ms, 20296ms total)
T3020 052:501 JLINK_WriteReg(R7, 0x00000000)  returns 0x00 (0000ms, 20296ms total)
T3020 052:501 JLINK_WriteReg(R8, 0x00000000)  returns 0x00 (0000ms, 20296ms total)
T3020 052:501 JLINK_WriteReg(R9, 0x20000160)  returns 0x00 (0000ms, 20296ms total)
T3020 052:501 JLINK_WriteReg(R10, 0x00000000)  returns 0x00 (0000ms, 20296ms total)
T3020 052:501 JLINK_WriteReg(R11, 0x00000000)  returns 0x00 (0000ms, 20296ms total)
T3020 052:501 JLINK_WriteReg(R12, 0x00000000)  returns 0x00 (0000ms, 20296ms total)
T3020 052:501 JLINK_WriteReg(R13 (SP), 0x20001000)  returns 0x00 (0000ms, 20296ms total)
T3020 052:501 JLINK_WriteReg(R14, 0x20000001)  returns 0x00 (0000ms, 20296ms total)
T3020 052:501 JLINK_WriteReg(R15 (PC), 0x200000B6)  returns 0x00 (0000ms, 20296ms total)
T3020 052:501 JLINK_WriteReg(XPSR, 0x01000000)  returns 0x00 (0000ms, 20296ms total)
T3020 052:501 JLINK_WriteReg(MSP, 0x20001000)  returns 0x00 (0000ms, 20296ms total)
T3020 052:501 JLINK_WriteReg(PSP, 0x20001000)  returns 0x00 (0000ms, 20296ms total)
T3020 052:501 JLINK_WriteReg(CFBP, 0x00000000)  returns 0x00 (0000ms, 20296ms total)
T3020 052:501 JLINK_SetBPEx(Addr = 0x20000000, Type = 0xFFFFFFF2)  returns 0x0000000D (0000ms, 20296ms total)
T3020 052:501 JLINK_Go() -- CPU_ReadMem(4 bytes @ 0xE0001000) (0002ms, 20298ms total)
T3020 052:503 JLINK_IsHalted()  returns FALSE (0000ms, 20298ms total)
T3020 052:507 JLINK_IsHalted()  returns FALSE (0000ms, 20298ms total)
T3020 052:509 JLINK_IsHalted()  returns FALSE (0000ms, 20298ms total)
T3020 052:512 JLINK_IsHalted()  returns FALSE (0000ms, 20298ms total)
T3020 052:514 JLINK_IsHalted()  returns FALSE (0000ms, 20298ms total)
T3020 052:516 JLINK_IsHalted()  returns FALSE (0000ms, 20298ms total)
T3020 052:518 JLINK_IsHalted()  returns FALSE (0000ms, 20298ms total)
T3020 052:521 JLINK_IsHalted()  returns FALSE (0000ms, 20298ms total)
T3020 052:523 JLINK_IsHalted()  returns FALSE (0000ms, 20298ms total)
T3020 052:525 JLINK_IsHalted()  returns FALSE (0000ms, 20298ms total)
T3020 052:528 JLINK_IsHalted() -- CPU_ReadMem(2 bytes @ 0x20000000)  returns TRUE (0002ms, 20300ms total)
T3020 052:530 JLINK_ReadReg(R15 (PC))  returns 0x20000000 (0000ms, 20298ms total)
T3020 052:530 JLINK_ClrBPEx(BPHandle = 0x0000000D)  returns 0x00 (0000ms, 20298ms total)
T3020 052:530 JLINK_ReadReg(R0)  returns 0x00000000 (0000ms, 20298ms total)
T3020 052:530 JLINK_WriteReg(R0, 0x08003000)  returns 0x00 (0000ms, 20298ms total)
T3020 052:530 JLINK_WriteReg(R1, 0x00000800)  returns 0x00 (0000ms, 20298ms total)
T3020 052:530 JLINK_WriteReg(R2, 0x000000FF)  returns 0x00 (0000ms, 20298ms total)
T3020 052:530 JLINK_WriteReg(R3, 0x00000000)  returns 0x00 (0000ms, 20298ms total)
T3020 052:530 JLINK_WriteReg(R4, 0x00000000)  returns 0x00 (0000ms, 20298ms total)
T3020 052:530 JLINK_WriteReg(R5, 0x00000000)  returns 0x00 (0000ms, 20298ms total)
T3020 052:530 JLINK_WriteReg(R6, 0x00000000)  returns 0x00 (0000ms, 20298ms total)
T3020 052:530 JLINK_WriteReg(R7, 0x00000000)  returns 0x00 (0000ms, 20298ms total)
T3020 052:530 JLINK_WriteReg(R8, 0x00000000)  returns 0x00 (0000ms, 20298ms total)
T3020 052:530 JLINK_WriteReg(R9, 0x20000160)  returns 0x00 (0001ms, 20299ms total)
T3020 052:531 JLINK_WriteReg(R10, 0x00000000)  returns 0x00 (0000ms, 20299ms total)
T3020 052:531 JLINK_WriteReg(R11, 0x00000000)  returns 0x00 (0001ms, 20300ms total)
T3020 052:532 JLINK_WriteReg(R12, 0x00000000)  returns 0x00 (0000ms, 20300ms total)
T3020 052:532 JLINK_WriteReg(R13 (SP), 0x20001000)  returns 0x00 (0000ms, 20300ms total)
T3020 052:532 JLINK_WriteReg(R14, 0x20000001)  returns 0x00 (0000ms, 20300ms total)
T3020 052:532 JLINK_WriteReg(R15 (PC), 0x20000020)  returns 0x00 (0000ms, 20300ms total)
T3020 052:532 JLINK_WriteReg(XPSR, 0x01000000)  returns 0x00 (0000ms, 20300ms total)
T3020 052:532 JLINK_WriteReg(MSP, 0x20001000)  returns 0x00 (0000ms, 20300ms total)
T3020 052:532 JLINK_WriteReg(PSP, 0x20001000)  returns 0x00 (0000ms, 20300ms total)
T3020 052:532 JLINK_WriteReg(CFBP, 0x00000000)  returns 0x00 (0000ms, 20300ms total)
T3020 052:532 JLINK_SetBPEx(Addr = 0x20000000, Type = 0xFFFFFFF2)  returns 0x0000000E (0000ms, 20300ms total)
T3020 052:532 JLINK_Go() -- CPU_ReadMem(4 bytes @ 0xE0001000) (0001ms, 20301ms total)
T3020 052:533 JLINK_IsHalted() -- CPU_ReadMem(2 bytes @ 0x20000000)  returns TRUE (0003ms, 20304ms total)
T3020 052:536 JLINK_ReadReg(R15 (PC))  returns 0x20000000 (0000ms, 20301ms total)
T3020 052:536 JLINK_ClrBPEx(BPHandle = 0x0000000E)  returns 0x00 (0000ms, 20301ms total)
T3020 052:536 JLINK_ReadReg(R0)  returns 0x00000001 (0000ms, 20301ms total)
T3020 052:536 JLINK_WriteReg(R0, 0x08003000)  returns 0x00 (0000ms, 20301ms total)
T3020 052:536 JLINK_WriteReg(R1, 0x00000800)  returns 0x00 (0000ms, 20301ms total)
T3020 052:536 JLINK_WriteReg(R2, 0x000000FF)  returns 0x00 (0000ms, 20301ms total)
T3020 052:536 JLINK_WriteReg(R3, 0x00000000)  returns 0x00 (0000ms, 20301ms total)
T3020 052:536 JLINK_WriteReg(R4, 0x00000000)  returns 0x00 (0000ms, 20301ms total)
T3020 052:536 JLINK_WriteReg(R5, 0x00000000)  returns 0x00 (0000ms, 20301ms total)
T3020 052:536 JLINK_WriteReg(R6, 0x00000000)  returns 0x00 (0000ms, 20301ms total)
T3020 052:536 JLINK_WriteReg(R7, 0x00000000)  returns 0x00 (0000ms, 20301ms total)
T3020 052:536 JLINK_WriteReg(R8, 0x00000000)  returns 0x00 (0000ms, 20301ms total)
T3020 052:536 JLINK_WriteReg(R9, 0x20000160)  returns 0x00 (0000ms, 20301ms total)
T3020 052:536 JLINK_WriteReg(R10, 0x00000000)  returns 0x00 (0000ms, 20301ms total)
T3020 052:536 JLINK_WriteReg(R11, 0x00000000)  returns 0x00 (0000ms, 20301ms total)
T3020 052:536 JLINK_WriteReg(R12, 0x00000000)  returns 0x00 (0000ms, 20301ms total)
T3020 052:536 JLINK_WriteReg(R13 (SP), 0x20001000)  returns 0x00 (0000ms, 20301ms total)
T3020 052:536 JLINK_WriteReg(R14, 0x20000001)  returns 0x00 (0000ms, 20301ms total)
T3020 052:536 JLINK_WriteReg(R15 (PC), 0x200000B6)  returns 0x00 (0000ms, 20301ms total)
T3020 052:536 JLINK_WriteReg(XPSR, 0x01000000)  returns 0x00 (0000ms, 20301ms total)
T3020 052:536 JLINK_WriteReg(MSP, 0x20001000)  returns 0x00 (0000ms, 20301ms total)
T3020 052:536 JLINK_WriteReg(PSP, 0x20001000)  returns 0x00 (0000ms, 20301ms total)
T3020 052:536 JLINK_WriteReg(CFBP, 0x00000000)  returns 0x00 (0000ms, 20301ms total)
T3020 052:536 JLINK_SetBPEx(Addr = 0x20000000, Type = 0xFFFFFFF2)  returns 0x0000000F (0000ms, 20301ms total)
T3020 052:536 JLINK_Go() -- CPU_ReadMem(4 bytes @ 0xE0001000) (0002ms, 20303ms total)
T3020 052:538 JLINK_IsHalted()  returns FALSE (0001ms, 20304ms total)
T3020 052:543 JLINK_IsHalted()  returns FALSE (0000ms, 20303ms total)
T3020 052:545 JLINK_IsHalted()  returns FALSE (0000ms, 20303ms total)
T3020 052:547 JLINK_IsHalted()  returns FALSE (0000ms, 20303ms total)
T3020 052:549 JLINK_IsHalted()  returns FALSE (0000ms, 20303ms total)
T3020 052:553 JLINK_IsHalted()  returns FALSE (0000ms, 20303ms total)
T3020 052:555 JLINK_IsHalted()  returns FALSE (0000ms, 20303ms total)
T3020 052:556 JLINK_IsHalted()  returns FALSE (0000ms, 20303ms total)
T3020 052:558 JLINK_IsHalted()  returns FALSE (0000ms, 20303ms total)
T3020 052:563 JLINK_IsHalted() -- CPU_ReadMem(2 bytes @ 0x20000000)  returns TRUE (0001ms, 20304ms total)
T3020 052:565 JLINK_ReadReg(R15 (PC))  returns 0x20000000 (0000ms, 20303ms total)
T3020 052:565 JLINK_ClrBPEx(BPHandle = 0x0000000F)  returns 0x00 (0000ms, 20303ms total)
T3020 052:565 JLINK_ReadReg(R0)  returns 0x00000000 (0000ms, 20303ms total)
T3020 052:565 JLINK_WriteReg(R0, 0x08003800)  returns 0x00 (0000ms, 20303ms total)
T3020 052:565 JLINK_WriteReg(R1, 0x00000800)  returns 0x00 (0000ms, 20303ms total)
T3020 052:565 JLINK_WriteReg(R2, 0x000000FF)  returns 0x00 (0000ms, 20303ms total)
T3020 052:565 JLINK_WriteReg(R3, 0x00000000)  returns 0x00 (0000ms, 20303ms total)
T3020 052:565 JLINK_WriteReg(R4, 0x00000000)  returns 0x00 (0000ms, 20303ms total)
T3020 052:565 JLINK_WriteReg(R5, 0x00000000)  returns 0x00 (0000ms, 20303ms total)
T3020 052:565 JLINK_WriteReg(R6, 0x00000000)  returns 0x00 (0000ms, 20303ms total)
T3020 052:565 JLINK_WriteReg(R7, 0x00000000)  returns 0x00 (0000ms, 20303ms total)
T3020 052:565 JLINK_WriteReg(R8, 0x00000000)  returns 0x00 (0000ms, 20303ms total)
T3020 052:565 JLINK_WriteReg(R9, 0x20000160)  returns 0x00 (0000ms, 20303ms total)
T3020 052:565 JLINK_WriteReg(R10, 0x00000000)  returns 0x00 (0000ms, 20303ms total)
T3020 052:565 JLINK_WriteReg(R11, 0x00000000)  returns 0x00 (0000ms, 20303ms total)
T3020 052:565 JLINK_WriteReg(R12, 0x00000000)  returns 0x00 (0001ms, 20304ms total)
T3020 052:566 JLINK_WriteReg(R13 (SP), 0x20001000)  returns 0x00 (0000ms, 20304ms total)
T3020 052:566 JLINK_WriteReg(R14, 0x20000001)  returns 0x00 (0000ms, 20304ms total)
T3020 052:566 JLINK_WriteReg(R15 (PC), 0x20000020)  returns 0x00 (0000ms, 20304ms total)
T3020 052:566 JLINK_WriteReg(XPSR, 0x01000000)  returns 0x00 (0000ms, 20304ms total)
T3020 052:566 JLINK_WriteReg(MSP, 0x20001000)  returns 0x00 (0000ms, 20304ms total)
T3020 052:566 JLINK_WriteReg(PSP, 0x20001000)  returns 0x00 (0000ms, 20304ms total)
T3020 052:566 JLINK_WriteReg(CFBP, 0x00000000)  returns 0x00 (0000ms, 20304ms total)
T3020 052:566 JLINK_SetBPEx(Addr = 0x20000000, Type = 0xFFFFFFF2)  returns 0x00000010 (0000ms, 20304ms total)
T3020 052:566 JLINK_Go() -- CPU_ReadMem(4 bytes @ 0xE0001000) (0003ms, 20307ms total)
T3020 052:569 JLINK_IsHalted() -- CPU_ReadMem(2 bytes @ 0x20000000)  returns TRUE (0003ms, 20310ms total)
T3020 052:572 JLINK_ReadReg(R15 (PC))  returns 0x20000000 (0000ms, 20307ms total)
T3020 052:572 JLINK_ClrBPEx(BPHandle = 0x00000010)  returns 0x00 (0000ms, 20307ms total)
T3020 052:572 JLINK_ReadReg(R0)  returns 0x00000001 (0000ms, 20307ms total)
T3020 052:572 JLINK_WriteReg(R0, 0x08003800)  returns 0x00 (0000ms, 20307ms total)
